<Qucs Dataset 1.0.7>
<indep VIN 20>
  +0.00000000000000000000e+00
  +6.31578947368421073083e-02
  +1.26315789473684214617e-01
  +1.89473684210526321925e-01
  +2.52631578947368429233e-01
  +3.15789473684210508786e-01
  +3.78947368421052643850e-01
  +4.42105263157894778914e-01
  +5.05263157894736858466e-01
  +5.68421052631578938019e-01
  +6.31578947368421017572e-01
  +6.94736842105263208147e-01
  +7.57894736842105287700e-01
  +8.21052631578947367252e-01
  +8.84210526315789557827e-01
  +9.47368421052631637380e-01
  +1.01052631578947371693e+00
  +1.07368421052631579649e+00
  +1.13684210526315787604e+00
  +1.19999999999999995559e+00
</indep>
<dep VCC.I VIN>
  +0.00000000000000000000e+00
  +0.00000000000000000000e+00
  +0.00000000000000000000e+00
  +0.00000000000000000000e+00
  +0.00000000000000000000e+00
  +0.00000000000000000000e+00
  +0.00000000000000000000e+00
  +0.00000000000000000000e+00
  +0.00000000000000000000e+00
  +0.00000000000000000000e+00
  +0.00000000000000000000e+00
  +0.00000000000000000000e+00
  +0.00000000000000000000e+00
  +0.00000000000000000000e+00
  +0.00000000000000000000e+00
  +0.00000000000000000000e+00
  +0.00000000000000000000e+00
  +0.00000000000000000000e+00
  +0.00000000000000000000e+00
  +0.00000000000000000000e+00
</dep>
<dep VIN.I VIN>
  +0.00000000000000000000e+00
  +0.00000000000000000000e+00
  +0.00000000000000000000e+00
  +0.00000000000000000000e+00
  +0.00000000000000000000e+00
  +0.00000000000000000000e+00
  +0.00000000000000000000e+00
  +0.00000000000000000000e+00
  +0.00000000000000000000e+00
  +0.00000000000000000000e+00
  +0.00000000000000000000e+00
  +0.00000000000000000000e+00
  +0.00000000000000000000e+00
  +0.00000000000000000000e+00
  +0.00000000000000000000e+00
  +0.00000000000000000000e+00
  +0.00000000000000000000e+00
  +0.00000000000000000000e+00
  +0.00000000000000000000e+00
  +0.00000000000000000000e+00
</dep>
<dep _net1.V VIN>
  +0.00000000000000000000e+00
  +0.00000000000000000000e+00
  +0.00000000000000000000e+00
  +0.00000000000000000000e+00
  +0.00000000000000000000e+00
  +0.00000000000000000000e+00
  +0.00000000000000000000e+00
  +0.00000000000000000000e+00
  +0.00000000000000000000e+00
  +0.00000000000000000000e+00
  +0.00000000000000000000e+00
  +0.00000000000000000000e+00
  +0.00000000000000000000e+00
  +0.00000000000000000000e+00
  +0.00000000000000000000e+00
  +0.00000000000000000000e+00
  +0.00000000000000000000e+00
  +0.00000000000000000000e+00
  +0.00000000000000000000e+00
  +0.00000000000000000000e+00
</dep>
<dep _net0.V VIN>
  +1.19999999999999995559e+00
  +1.19999999999999995559e+00
  +1.19999999999999995559e+00
  +1.19999999999999995559e+00
  +1.19999999999999995559e+00
  +1.19999999999999995559e+00
  +1.19999999999999995559e+00
  +1.19999999999999995559e+00
  +1.19999999999999995559e+00
  +1.19999999999999995559e+00
  +1.19999999999999995559e+00
  +1.19999999999999995559e+00
  +1.19999999999999995559e+00
  +1.19999999999999995559e+00
  +1.19999999999999995559e+00
  +1.19999999999999995559e+00
  +1.19999999999999995559e+00
  +1.19999999999999995559e+00
  +1.19999999999999995559e+00
  +1.19999999999999995559e+00
</dep>
